(1658488156.662241) can0 760#041800FF00000000
(1658488156.686469) can0 768#100E5804517560E5
(1658488156.686840) can0 760#3000000000000000
(1658488156.691481) can0 768#210120599120C073
(1658488156.696490) can0 768#2260000000000000
(1658488180.926390) can0 760#0314FF0000000000
(1658488180.975505) can0 768#037F147800000000
(1658488181.072816) can0 768#037F147800000000
(1658488187.079510) can0 760#0314FF0000000000
(1658488187.103808) can0 768#0354FF0000000000
(1658488195.101911) can0 760#041800FF00000000
(1658488195.127162) can0 768#037F182100000000
(1658488213.884888) can0 760#023E010000000000
(1658488213.909960) can0 768#017E000000000000
(1658488213.911174) can0 760#023E010000000000
(1658488213.935991) can0 768#017E000000000000
(1658488213.963663) can0 760#0210830000000000
(1658488213.987935) can0 768#037F101200000000
(1658488214.092103) can0 760#0331020000000000
(1658488214.116919) can0 768#0371020000000000
(1658488217.140532) can0 760#0233020000000000
(1658488217.165586) can0 768#037F332100000000
(1658488217.911497) can0 760#023E010000000000
(1658488217.936240) can0 768#017E000000000000
(1658488218.169677) can0 760#0233020000000000
(1658488218.194274) can0 768#037F332100000000
(1658488219.200580) can0 760#0233020000000000
(1658488219.225054) can0 768#037F332100000000
(1658488220.231777) can0 760#0233020000000000
(1658488220.256853) can0 768#037F332100000000
(1658488221.263756) can0 760#0233020000000000
(1658488221.289874) can0 768#037F332100000000
(1658488221.912466) can0 760#023E010000000000
(1658488221.937591) can0 768#017E000000000000
(1658488222.296824) can0 760#0233020000000000
(1658488222.362574) can0 768#037F332100000000
(1658488223.369469) can0 760#0233020000000000
(1658488223.394371) can0 768#037F332100000000
(1658488224.400678) can0 760#0233020000000000
(1658488224.425210) can0 768#037F332100000000
(1658488225.432618) can0 760#0233020000000000
(1658488225.457065) can0 768#037F332100000000
(1658488225.913546) can0 760#023E010000000000
(1658488225.937996) can0 768#017E000000000000
(1658488226.464162) can0 760#0233020000000000
(1658488226.489149) can0 768#037F332100000000
(1658488227.495448) can0 760#0233020000000000
(1658488227.519770) can0 768#037F332100000000
(1658488228.526386) can0 760#0233020000000000
(1658488228.552175) can0 768#037F332100000000
(1658488229.558749) can0 760#0233020000000000
(1658488229.583487) can0 768#037F332100000000
(1658488229.914652) can0 760#023E010000000000
(1658488229.939442) can0 768#017E000000000000
(1658488230.590250) can0 760#0233020000000000
(1658488230.615347) can0 768#037F332100000000
(1658488231.623109) can0 760#0233020000000000
(1658488231.648671) can0 768#037F332100000000
(1658488232.655134) can0 760#0233020000000000
(1658488232.680090) can0 768#037F332100000000
(1658488233.688184) can0 760#0233020000000000
(1658488233.711964) can0 768#037F332100000000
(1658488233.915440) can0 760#023E010000000000
(1658488233.939936) can0 768#017E000000000000
(1658488234.718212) can0 760#0233020000000000
(1658488234.742880) can0 768#037F332100000000
(1658488235.749195) can0 760#0233020000000000
(1658488235.773709) can0 768#037F332100000000
(1658488236.780105) can0 760#0233020000000000
(1658488236.805541) can0 768#037F332100000000
(1658488237.812285) can0 760#0233020000000000
(1658488237.837589) can0 768#037F332100000000
(1658488237.916262) can0 760#023E010000000000
(1658488237.942318) can0 768#017E000000000000
(1658488238.844504) can0 760#0233020000000000
(1658488238.869354) can0 768#037F332100000000
(1658488239.875976) can0 760#0233020000000000
(1658488240.908811) can0 760#0233020000000000
(1658488240.933130) can0 768#037F332100000000
(1658488241.917143) can0 760#023E010000000000
(1658488241.939379) can0 760#0233020000000000
(1658488241.942025) can0 768#017E000000000000
(1658488242.548641) can0 760#0233020000000000
(1658488242.600001) can0 768#037F332100000000
(1658488244.213182) can0 760#0233020000000000
(1658488244.238024) can0 768#037F332100000000
(1658488245.244933) can0 760#0233020000000000
(1658488245.269672) can0 768#037F332100000000
(1658488245.918037) can0 760#023E010000000000
(1658488245.942610) can0 768#017E000000000000
(1658488246.301937) can0 768#037F332100000000
(1658488247.312075) can0 760#0233020000000000
(1658488248.343836) can0 760#0233020000000000
(1658488248.368366) can0 768#037F332100000000
(1658488249.374543) can0 760#0233020000000000
(1658488249.399269) can0 768#037F332100000000
(1658488249.918971) can0 760#023E010000000000
(1658488249.944221) can0 768#017E000000000000
(1658488250.405704) can0 760#0233020000000000
(1658488250.430279) can0 768#037F332100000000
(1658488251.437267) can0 760#0233020000000000
(1658488251.462051) can0 768#037F332100000000
(1658488252.468593) can0 760#0233020000000000
(1658488252.492985) can0 768#037F332100000000
(1658488253.499270) can0 760#0233020000000000
(1658488253.524742) can0 768#037F332100000000
(1658488253.922146) can0 760#023E010000000000
(1658488253.946856) can0 768#017E000000000000
(1658488254.530833) can0 760#0233020000000000
(1658488255.562867) can0 760#0233020000000000
(1658488255.587700) can0 768#037F332100000000
(1658488256.594528) can0 760#0233020000000000
(1658488257.199416) can0 760#0233020000000000
(1658488257.225103) can0 768#037F332100000000
(1658488257.924196) can0 760#023E010000000000
(1658488257.948509) can0 768#017E000000000000
(1658488258.231426) can0 760#0233020000000000
(1658488258.256479) can0 768#037F332100000000
(1658488259.263038) can0 760#0233020000000000
(1658488259.287396) can0 768#037F332100000000
(1658488260.293696) can0 760#0233020000000000
(1658488260.318308) can0 768#037F332100000000
(1658488261.349233) can0 768#037F332100000000
(1658488262.356429) can0 760#0233020000000000
(1658488262.381139) can0 768#037F332100000000
(1658488263.387596) can0 760#0233020000000000
(1658488263.412061) can0 768#037F332100000000
(1658488264.418658) can0 760#0233020000000000
(1658488264.442949) can0 768#037F332100000000
(1658488265.449885) can0 760#0233020000000000
(1658488265.476216) can0 768#037F332100000000
(1658488265.925860) can0 760#023E010000000000
(1658488265.950866) can0 768#017E000000000000
(1658488266.482819) can0 760#0233020000000000
(1658488266.507825) can0 768#037F332100000000
(1658488267.539741) can0 768#037F332100000000
(1658488268.546752) can0 760#0233020000000000
(1658488268.617614) can0 768#037F332100000000
(1658488269.624001) can0 760#0233020000000000
(1658488269.648582) can0 768#037F332100000000
(1658488269.926864) can0 760#023E010000000000
(1658488269.951563) can0 768#017E000000000000
(1658488270.655110) can0 760#0233020000000000
(1658488270.679506) can0 768#037F332100000000
(1658488271.686081) can0 760#0233020000000000
(1658488271.710429) can0 768#037F332100000000
(1658488272.717419) can0 760#0233020000000000
(1658488272.743092) can0 768#037F332100000000
(1658488273.749420) can0 760#0233020000000000
(1658488273.774636) can0 768#037F332100000000
(1658488273.927878) can0 760#023E010000000000
(1658488273.952275) can0 768#017E000000000000
(1658488274.781791) can0 760#0233020000000000
(1658488274.806209) can0 768#037F332100000000
(1658488275.812479) can0 760#0233020000000000
(1658488275.837136) can0 768#037F332100000000
(1658488277.448068) can0 760#0233020000000000
(1658488277.472369) can0 768#037F333100000000
(1658488283.571255) can0 760#023E010000000000
(1658488283.596056) can0 768#017E000000000000
(1658488283.597508) can0 760#023E010000000000
(1658488283.622144) can0 768#017E000000000000
(1658488283.650068) can0 760#0210830000000000
(1658488283.675035) can0 768#037F101200000000
(1658488283.779399) can0 760#0331020000000000
(1658488283.804041) can0 768#0371020000000000
(1658488286.825494) can0 760#0233020000000000
(1658488286.850553) can0 768#077302015175C073
(1658488323.743274) can0 760#0211010000000000
(1658488323.767669) can0 768#0151000000000000
(1658488423.960869) can0 760#0221020000000000
(1658488423.985513) can0 768#037F213100000000
(1658488423.998859) can0 760#0221030000000000
(1658488424.023511) can0 768#037F213100000000
(1658488424.036850) can0 760#0221040000000000
(1658488424.061506) can0 768#037F213100000000
(1658488424.075690) can0 760#0221050000000000
(1658488424.100616) can0 768#037F213100000000
(1658488424.112797) can0 760#0221060000000000
(1658488424.137506) can0 768#037F213100000000
(1658488426.861830) can0 760#100F220001000200
(1658488426.872674) can0 760#2200070000000000
(1658488426.897515) can0 768#037F221200000000
(1658488426.921786) can0 760#0221000000000000
(1658488426.946553) can0 768#10136100FFFFFFFF
(1658488426.946960) can0 760#3000000000000000
(1658488426.951530) can0 768#21FFFFFFFFFFFFFF
(1658488426.957446) can0 768#22FFFFFFFFFFFF00
(1658488426.995511) can0 768#0561012002010000
(1658488489.051916) can0 768#037F213100000000
(1658488489.066912) can0 760#0221030000000000
(1658488489.091920) can0 768#037F213100000000
(1658488489.105239) can0 760#0221040000000000
(1658488489.129916) can0 768#037F213100000000
(1658488489.142721) can0 760#0221050000000000
(1658488489.167907) can0 768#037F213100000000
(1658488489.181271) can0 760#0221060000000000
(1658488489.205906) can0 768#037F213100000000
(1658488489.230243) can0 760#100F220001000200
(1658488489.234912) can0 768#3000050000000000
(1658488489.235285) can0 760#2103000400050006
(1658488489.240571) can0 760#2200070000000000
(1658488489.293506) can0 760#0221000000000000
(1658488489.318032) can0 768#10136100FFFFFFFF
(1658488489.318412) can0 760#3000000000000000
(1658488489.322918) can0 768#21FFFFFFFFFFFFFF
(1658488489.342230) can0 760#0221010000000000
(1658488552.720975) can0 760#053B012006010000
(1658488552.745463) can0 768#027B010000000000
(1658488554.788310) can0 760#0211010000000000
(1658488554.813543) can0 768#0151000000000000
(1658488574.033424) can0 760#053B012001010000
(1658488574.058368) can0 768#027B010000000000
(1658488576.097881) can0 760#0211010000000000
(1658488576.122319) can0 768#0151000000000000
(1658488695.068282) can0 760#0314FF0000000000
(1658488695.116864) can0 768#037F147800000000
(1658488695.165653) can0 768#037F147800000000
(1658488695.214589) can0 768#037F147800000000
(1658488695.263592) can0 768#037F147800000000
(1658488695.312736) can0 768#037F147800000000
(1658488695.361583) can0 768#037F147800000000
(1658488695.410581) can0 768#037F147800000000
(1658488695.459585) can0 768#037F147800000000
(1658488695.508586) can0 768#037F147800000000
(1658488695.557581) can0 768#037F147800000000
(1658488704.483178) can0 760#041800FF00000000
(1658488704.507913) can0 768#037F182100000000
(1658488752.039213) can0 760#0322290500000000
(1658488752.063591) can0 768#0762290500000000
(1658488752.066499) can0 760#0322290400000000
(1658488752.091590) can0 768#0762290400000000
(1658488752.094726) can0 760#0322290600000000
(1658488752.119747) can0 768#0562290608000000
(1658488752.122580) can0 760#0322290A00000000
(1658488752.147574) can0 768#0462290ACC000000
(1658488752.174579) can0 768#0462D10081000000
(1658488752.177117) can0 760#0322290000000000
(1658488752.201579) can0 768#0562290000000000
(1658488752.205178) can0 760#0322293000000000
(1658488752.229684) can0 768#0562293000000000
(1658488752.232291) can0 760#0322020000000000
(1658488752.262080) can0 760#0322292700000000
(1658488752.286602) can0 768#0462292700000000
(1658488752.292673) can0 760#0322D10B00000000
(1658488752.317579) can0 768#0462D10B94000000
(1658488752.323829) can0 760#03223A5100000000
(1658488752.348576) can0 768#05623A5100000000
(1658488752.381576) can0 768#0462398802000000
(1658488752.387791) can0 760#0322398A00000000
(1658488752.412578) can0 768#0462398A02000000
(1658488752.418291) can0 760#0322398900000000
(1658488752.442571) can0 768#0462398902000000
(1658488752.448411) can0 760#0322398B00000000
(1658488752.473570) can0 768#0462398B02000000
(1658488752.479114) can0 760#0322320100000000
(1658488752.503567) can0 768#0562320180E40000
(1658488752.509695) can0 760#0322293100000000
(1658488752.534565) can0 768#0462293100000000
(1658488752.542900) can0 760#03223A5000000000
(1658488752.567571) can0 768#05623A5000000000
(1658488752.573826) can0 760#0322290500000000
(1658488752.598569) can0 768#0762290500000000
(1658488752.607674) can0 760#0322290400000000
(1658488752.632577) can0 768#0762290400000000
(1658488752.641327) can0 760#0322290600000000
(1658488752.666575) can0 768#0562290608000000
(1658488752.673911) can0 760#0322290A00000000
(1658488752.698563) can0 768#0462290ACC000000
(1658488752.704304) can0 760#0322D10000000000
(1658488752.728562) can0 768#0462D10081000000
(1658488752.734307) can0 760#0322290000000000
(1658488752.759563) can0 768#0562290000000000
(1658488752.766611) can0 760#0322293000000000
(1658488752.791563) can0 768#0562293000000000
(1658488752.797302) can0 760#0322020000000000
(1658488752.822575) can0 768#0462020002000000
(1658488752.828399) can0 760#0322292700000000
(1658488752.862857) can0 760#0322D10B00000000
(1658488752.887558) can0 768#0462D10B94000000
(1658488752.893808) can0 760#03223A5100000000
(1658488752.948503) can0 768#05623A5100000000
(1658488752.954318) can0 760#0322398800000000
(1658488752.981589) can0 768#0462398802000000
(1658488752.987196) can0 760#0322398A00000000
(1658488753.012674) can0 768#0462398A02000000
(1658488753.018351) can0 760#0322398900000000
(1658488753.044231) can0 768#0462398902000000
(1658488753.050151) can0 760#0322398B00000000
(1658488753.074550) can0 768#0462398B02000000
(1658488753.080361) can0 760#0322320100000000
(1658488753.106151) can0 768#0562320180E40000
(1658488753.111924) can0 760#0322293100000000
(1658488753.136556) can0 768#0462293100000000
(1658488753.144730) can0 760#03223A5000000000
(1658488753.169645) can0 768#05623A50FFFF0000
(1658488753.176119) can0 760#0322290500000000
(1658488753.200972) can0 768#0762290500000000
(1658488753.245384) can0 760#0322290600000000
(1658488753.277714) can0 760#0322290A00000000
(1658488753.302550) can0 768#0462290ACC000000
(1658488753.308756) can0 760#0322D10000000000
(1658488753.333550) can0 768#0462D10081000000
(1658488753.339463) can0 760#0322290000000000
(1658488753.365921) can0 768#0562290000000000
(1658488753.373328) can0 760#0322293000000000
(1658488753.398552) can0 768#0562293000000000
(1658488753.405144) can0 760#0322020000000000
(1658488753.429554) can0 768#0462020002000000
(1658488753.436031) can0 760#0322292700000000
(1658488753.462065) can0 768#0462292700000000
(1658488753.469811) can0 760#0322D10B00000000
(1658488753.494541) can0 768#0462D10B94000000
(1658488753.525546) can0 768#05623A5100000000
(1658488753.531230) can0 760#0322398800000000
(1658488753.555829) can0 768#0462398802000000
(1658488753.561130) can0 760#0322398A00000000
(1658488753.585545) can0 768#0462398A02000000
(1658488753.591531) can0 760#0322398900000000
(1658488753.616540) can0 768#0462398902000000
(1658488753.622533) can0 760#0322398B00000000
(1658488753.647540) can0 768#0462398B02000000
(1658488753.654488) can0 760#0322320100000000
(1658488753.679540) can0 768#0562320180E40000
(1658488753.685237) can0 760#0322293100000000
(1658488753.709674) can0 768#0462293100000000
(1658488753.717335) can0 760#03223A5000000000
(1658488753.742550) can0 768#05623A5000000000
(1658488753.748166) can0 760#0322290500000000
(1658488753.772546) can0 768#0762290500000000
(1658488753.781364) can0 760#0322290400000000
(1658488753.806541) can0 768#0762290400000000
(1658488753.814821) can0 760#0322290600000000
(1658488753.888588) can0 768#0562290608000000
(1658488753.895613) can0 760#0322290A00000000
(1658488753.921992) can0 768#0462290ACC000000
(1658488753.927652) can0 760#0322D10000000000
(1658488753.952545) can0 768#0462D10081000000
(1658488753.958663) can0 760#0322290000000000
(1658488753.983538) can0 768#0562290000000000
(1658488753.991111) can0 760#0322293000000000
(1658488754.015533) can0 768#0562293000000000
(1658488754.021537) can0 760#0322020000000000
(1658488754.046537) can0 768#0462020002000000
(1658488754.051969) can0 760#0322292700000000
(1658488754.076527) can0 768#0462292700000000
(1658488754.084163) can0 760#0322D10B00000000
(1658488754.108525) can0 768#0462D10B94000000
(1658488754.114116) can0 760#03223A5100000000
(1658488754.138525) can0 768#05623A5100000000
(1658488754.144210) can0 760#0322398800000000
(1658488754.168525) can0 768#0462398802000000
(1658488754.176090) can0 760#0322398A00000000
(1658488754.201063) can0 768#0462398A02000000
(1658488754.207125) can0 760#0322398900000000
(1658488754.231523) can0 768#0462398902000000
(1658488754.241554) can0 760#0322398B00000000
(1658488754.266523) can0 768#0462398B02000000
(1658488754.272488) can0 760#0322320100000000
(1658488754.297522) can0 768#0562320180E40000
(1658488754.303222) can0 760#0322293100000000
(1658488754.327522) can0 768#0462293100000000
(1658488754.335141) can0 760#03223A5000000000
(1658488754.359524) can0 768#05623A50FFFF0000
(1658488754.365160) can0 760#0322290500000000
(1658488754.391162) can0 768#0762290500000000
(1658488754.399269) can0 760#0322290400000000
(1658488754.424522) can0 768#0762290400000000
(1658488754.432926) can0 760#0322290600000000
(1658488754.457517) can0 768#0562290608000000
(1658488754.464565) can0 760#0322290A00000000
(1658488754.489514) can0 768#0462290ACC000000
(1658488754.495349) can0 760#0322D10000000000
(1658488754.521050) can0 768#0462D10081000000
(1658488754.526795) can0 760#0322290000000000
(1658488754.551518) can0 768#0562290000000000
(1658488754.559135) can0 760#0322293000000000
(1658488754.583538) can0 768#0562293000000000
(1658488754.589855) can0 760#0322020000000000
(1658488754.615449) can0 768#0462020002000000
(1658488754.621248) can0 760#0322292700000000
(1658488754.645798) can0 768#0462292700000000
(1658488754.654051) can0 760#0322D10B00000000
(1658488754.678505) can0 768#0462D10B94000000
(1658488754.684350) can0 760#03223A5100000000
(1658488754.711257) can0 768#05623A5100000000
(1658488754.716945) can0 760#0322398800000000
(1658488754.742311) can0 768#0462398802000000
(1658488754.748009) can0 760#0322398A00000000
(1658488754.773079) can0 768#0462398A02000000
(1658488754.778770) can0 760#0322398900000000
(1658488754.803513) can0 768#0462398902000000
(1658488754.809463) can0 760#0322398B00000000
(1658488754.834506) can0 768#0462398B02000000
(1658488754.840810) can0 760#0322320100000000
(1658488754.865511) can0 768#0562320180E40000
(1658488754.872360) can0 760#0322293100000000
(1658488754.897504) can0 768#0462293100000000
(1658488754.905916) can0 760#03223A5000000000
(1658488754.930508) can0 768#05623A5000000000
(1658488754.935943) can0 760#0322290500000000
(1658488754.960512) can0 768#0762290500000000
(1658488754.968817) can0 760#0322290400000000
(1658488754.993508) can0 768#0762290400000000
(1658488755.002084) can0 760#0322290600000000
(1658488755.026507) can0 768#0562290608000000
(1658488755.033546) can0 760#0322290A00000000
(1658488755.058498) can0 768#0462290ACC000000
(1658488755.064425) can0 760#0322D10000000000
(1658488755.089505) can0 768#0462D10081000000
(1658488755.095675) can0 760#0322290000000000
(1658488755.120844) can0 768#0562290000000000
(1658488755.127770) can0 760#0322293000000000
(1658488755.152841) can0 768#0562293000000000
(1658488755.159157) can0 760#0322020000000000
(1658488755.183505) can0 768#0462020002000000
(1658488755.189795) can0 760#0322292700000000
(1658488755.214495) can0 768#0462292700000000
(1658488755.222557) can0 760#0322D10B00000000
(1658488755.247492) can0 768#0462D10B94000000
(1658488755.252929) can0 760#03223A5100000000
(1658488755.277495) can0 768#05623A5100000000
(1658488755.283189) can0 760#0322398800000000
(1658488755.307493) can0 768#0462398802000000
(1658488755.313173) can0 760#0322398A00000000
(1658488755.338136) can0 768#0462398A02000000
(1658488755.343970) can0 760#0322398900000000
(1658488755.368490) can0 768#0462398902000000
(1658488755.374878) can0 760#0322398B00000000
(1658488755.399497) can0 768#0462398B02000000
(1658488755.405788) can0 760#0322320100000000
(1658488755.431074) can0 768#0562320180E40000
(1658488755.436865) can0 760#0322293100000000
(1658488755.461490) can0 768#0462293100000000
(1658488755.469762) can0 760#03223A5000000000
(1658488755.494633) can0 768#05623A50FFFF0000
(1658488755.501084) can0 760#0322290500000000
(1658488755.525494) can0 768#0762290500000000
(1658488755.533829) can0 760#0322290400000000
(1658488755.558700) can0 768#0762290400000000
(1658488755.567069) can0 760#0322290600000000
(1658488755.591485) can0 768#0562290608000000
(1658488755.598537) can0 760#0322290A00000000
(1658488755.623476) can0 768#0462290ACC000000
(1658488755.629089) can0 760#0322D10000000000
(1658488755.653484) can0 768#0462D10081000000
(1658488755.659760) can0 760#0322290000000000
(1658488755.684487) can0 768#0562290000000000
(1658488755.692009) can0 760#0322293000000000
(1658488755.716488) can0 768#0562293000000000
(1658488755.722397) can0 760#0322020000000000
(1658488755.747491) can0 768#0462020002000000
(1658488755.753718) can0 760#0322292700000000
(1658488755.778479) can0 768#0462292700000000
(1658488755.786088) can0 760#0322D10B00000000
(1658488755.810487) can0 768#0462D10B94000000
(1658488755.816264) can0 760#03223A5100000000
(1658488755.842599) can0 768#05623A5100000000
(1658488755.849404) can0 760#0322398800000000
(1658488755.874481) can0 768#0462398802000000
(1658488755.880206) can0 760#0322398A00000000
(1658488755.904481) can0 768#0462398A02000000
(1658488755.911584) can0 760#0322398900000000
(1658488755.936477) can0 768#0462398902000000
(1658488755.943091) can0 760#0322398B00000000
(1658488755.967482) can0 768#0462398B02000000
(1658488755.973676) can0 760#0322320100000000
(1658488755.998475) can0 768#0562320180E40000
(1658488756.029473) can0 768#0462293100000000
(1658488756.037149) can0 760#03223A5000000000
(1658488756.061500) can0 768#05623A5000000000
(1658488756.067225) can0 760#0322290500000000
(1658488756.092483) can0 768#0762290500000000
(1658488756.101002) can0 760#0322290400000000
(1658488756.125480) can0 768#0762290400000000
(1658488756.133788) can0 760#0322290600000000
(1658488756.158477) can0 768#0562290608000000
(1658488756.165501) can0 760#0322290A00000000
(1658488756.190488) can0 768#0462290ACC000000
(1658488756.196382) can0 760#0322D10000000000
(1658488756.221471) can0 768#0462D10081000000
(1658488756.226971) can0 760#0322290000000000
(1658488756.251472) can0 768#0562290000000000
(1658488756.259669) can0 760#0322293000000000
(1658488756.284472) can0 768#0562293000000000
(1658488756.290541) can0 760#0322020000000000
(1658488756.315475) can0 768#0462020002000000
(1658488756.321308) can0 760#0322292700000000
(1658488756.346464) can0 768#0462292700000000
(1658488756.357722) can0 760#0322D10B00000000
(1658488756.382469) can0 768#0462D10B94000000
(1658488756.388394) can0 760#03223A5100000000
(1658488756.413462) can0 768#05623A5100000000
(1658488756.419206) can0 760#0322398800000000
(1658488756.445080) can0 768#0462398802000000
(1658488756.452100) can0 760#0322398A00000000
(1658488756.476462) can0 768#0462398A02000000
(1658488756.482120) can0 760#0322398900000000
(1658488756.512979) can0 760#0322398B00000000
(1658488756.537457) can0 768#0462398B02000000
(1658488756.543483) can0 760#0322320100000000
(1658488756.568460) can0 768#0562320180E40000
(1658488756.574617) can0 760#0322293100000000
(1658488756.600967) can0 768#0462293100000000
(1658488756.609121) can0 760#03223A5000000000
(1658488756.633456) can0 768#05623A5000000000
(1658488756.664460) can0 768#0762290500000000
(1658488756.673419) can0 760#0322290400000000
(1658488756.698437) can0 768#0762290400000000
(1658488756.707398) can0 760#0322290600000000
(1658488756.732435) can0 768#0562290608000000
(1658488756.740004) can0 760#0322290A00000000
(1658488756.764426) can0 768#0462290ACC000000
(1658488756.796430) can0 768#0462D10081000000
(1658488756.802207) can0 760#0322290000000000
(1658488756.827431) can0 768#0562290000000000
(1658488756.834414) can0 760#0322293000000000
(1658488756.859428) can0 768#0562293000000000
(1658488756.865049) can0 760#0322020000000000
(1658488756.889431) can0 768#0462020002000000
(1658488756.895081) can0 760#0322292700000000
(1658488756.921470) can0 768#0462292700000000
(1658488756.929107) can0 760#0322D10B00000000
(1658488756.953421) can0 768#0462D10B94000000
(1658488756.959390) can0 760#03223A5100000000
(1658488756.984423) can0 768#05623A5100000000
(1658488756.991300) can0 760#0322398800000000
(1658488757.017549) can0 768#0462398802000000
(1658488757.023771) can0 760#0322398A00000000
(1658488757.048421) can0 768#0462398A02000000
(1658488757.054202) can0 760#0322398900000000
(1658488757.079418) can0 768#0462398902000000
(1658488757.085175) can0 760#0322398B00000000
(1658488757.110842) can0 768#0462398B02000000
(1658488757.116574) can0 760#0322320100000000
(1658488757.141418) can0 768#0562320180E40000
(1658488757.147142) can0 760#0322293100000000
(1658488757.180086) can0 760#03223A5000000000
(1658488757.210391) can0 760#0322290500000000
(1658488757.235421) can0 768#0762290500000000
(1658488757.244576) can0 760#0322290400000000
(1658488757.269420) can0 768#0762290400000000
(1658488757.278630) can0 760#0322290600000000
(1658488757.303421) can0 768#0562290608000000
(1658488757.310813) can0 760#0322290A00000000
(1658488757.335413) can0 768#0462290ACC000000
(1658488757.367415) can0 768#0462D10081000000
(1658488757.373793) can0 760#0322290000000000
(1658488757.398442) can0 768#0562290000000000
(1658488757.407805) can0 760#0322293000000000
(1658488757.432768) can0 768#0562293000000000
(1658488757.439661) can0 760#0322020000000000
(1658488757.464578) can0 768#0462020002000000
(1658488757.495434) can0 768#0462292700000000
(1658488757.503238) can0 760#0322D10B00000000
(1658488757.528641) can0 768#0462D10B94000000
(1658488757.534434) can0 760#03223A5100000000
(1658488757.559434) can0 768#05623A5100000000
(1658488757.565148) can0 760#0322398800000000
(1658488757.589542) can0 768#0462398802000000
(1658488757.595229) can0 760#0322398A00000000
(1658488757.621020) can0 768#0462398A02000000
(1658488757.626434) can0 760#0322398900000000
(1658488757.651427) can0 768#0462398902000000
(1658488757.657990) can0 760#0322398B00000000
(1658488757.682426) can0 768#0462398B02000000
(1658488757.693939) can0 760#0322320100000000
(1658488757.718420) can0 768#0562320180E40000
(1658488757.724593) can0 760#0322293100000000
(1658488757.749422) can0 768#0462293100000000
(1658488757.758787) can0 760#03223A5000000000
(1658488757.783420) can0 768#05623A5000000000
(1658488757.789584) can0 760#0322290500000000
(1658488757.814430) can0 768#0762290500000000
(1658488757.823097) can0 760#0322290400000000
(1658488757.848132) can0 768#0762290400000000
(1658488757.857839) can0 760#0322290600000000
(1658488757.882455) can0 768#0562290608000000
(1658488757.915420) can0 768#0462290ACC000000
(1658488757.921356) can0 760#0322D10000000000
(1658488757.946422) can0 768#0462D10081000000
(1658488757.952110) can0 760#0322290000000000
(1658488757.978524) can0 768#0562290000000000
(1658488757.985453) can0 760#0322293000000000
(1658488758.010955) can0 768#0562293000000000
(1658488758.016624) can0 760#0322020000000000
(1658488758.080271) can0 760#0322D10B00000000
(1658488758.111643) can0 760#03223A5100000000
(1658488758.136407) can0 768#05623A5100000000
(1658488758.142434) can0 760#0322398800000000
(1658488758.167405) can0 768#0462398802000000
(1658488758.173233) can0 760#0322398A00000000
(1658488758.198415) can0 768#0462398A02000000
(1658488758.205190) can0 760#0322398900000000
(1658488758.230412) can0 768#0462398902000000
(1658488758.236053) can0 760#0322398B00000000
(1658488758.260415) can0 768#0462398B02000000
(1658488758.267082) can0 760#0322320100000000
(1658488758.291409) can0 768#0562320180E40000
(1658488758.297398) can0 760#0322293100000000
(1658488758.322410) can0 768#0462293100000000
(1658488758.330028) can0 760#03223A5000000000
(1658488758.363624) can0 760#0322290500000000
(1658488758.388413) can0 768#0762290500000000
(1658488758.396828) can0 760#0322290400000000
(1658488758.421411) can0 768#0762290400000000
(1658488758.429639) can0 760#0322290600000000
(1658488758.454413) can0 768#0562290608000000
(1658488758.461645) can0 760#0322290A00000000
(1658488758.486401) can0 768#0462290ACC000000
(1658488758.492237) can0 760#0322D10000000000
(1658488758.517404) can0 768#0462D10081000000
(1658488758.523869) can0 760#0322290000000000
(1658488758.548407) can0 768#0562290000000000
(1658488758.556420) can0 760#0322293000000000
(1658488758.581405) can0 768#0562293000000000
(1658488758.587353) can0 760#0322020000000000
(1658488758.612413) can0 768#0462020002000000
(1658488758.618143) can0 760#0322292700000000
(1658488758.651874) can0 760#0322D10B00000000
(1658488758.676397) can0 768#0462D10B94000000
(1658488758.682003) can0 760#03223A5100000000
(1658488758.706399) can0 768#05623A5100000000
(1658488758.712010) can0 760#0322398800000000
(1658488758.736396) can0 768#0462398802000000
(1658488758.742454) can0 760#0322398A00000000
(1658488758.767399) can0 768#0462398A02000000
(1658488758.773623) can0 760#0322398900000000
(1658488758.798400) can0 768#0462398902000000
(1658488758.804133) can0 760#0322398B00000000
(1658488758.828394) can0 768#0462398B02000000
(1658488758.834099) can0 760#0322320100000000
(1658488758.860307) can0 768#0562320180E40000
(1658488758.864850) can0 760#0322293100000000
(1658488758.891042) can0 768#0462293100000000
(1658488758.898672) can0 760#03223A5000000000
(1658488758.923396) can0 768#05623A5000000000
(1658488758.929106) can0 760#0322290500000000
(1658488758.954061) can0 768#0762290500000000
(1658488758.962235) can0 760#0322290400000000
(1658488758.987396) can0 768#0762290400000000
(1658488758.995771) can0 760#0322290600000000
(1658488759.249391) can0 768#0562290608000000
(1658488759.283381) can0 768#0462290ACC000000
(1658488759.289632) can0 760#0322D10000000000
(1658488759.314383) can0 768#0462D10081000000
(1658488759.352627) can0 760#0322293000000000
(1658488759.377383) can0 768#0562293000000000
(1658488759.383115) can0 760#0322020000000000
(1658488759.407386) can0 768#0462020002000000
(1658488759.413028) can0 760#0322292700000000
(1658488759.437375) can0 768#0462292700000000
(1658488759.476542) can0 760#03223A5100000000
(1658488759.501376) can0 768#05623A5100000000
(1658488759.508226) can0 760#0322398800000000
(1658488759.533376) can0 768#0462398802000000
(1658488759.540391) can0 760#0322398A00000000
(1658488759.565380) can0 768#0462398A02000000
(1658488759.596372) can0 768#0462398902000000
(1658488759.631369) can0 768#0462398B02000000
(1658488759.638335) can0 760#0322320100000000
(1658488759.663370) can0 768#0562320180E40000
(1658488759.696371) can0 768#0462293100000000
(1658488759.704237) can0 760#03223A5000000000
(1658488759.729369) can0 768#05623A5000000000
(1658488759.736242) can0 760#0322290500000000
(1658488759.761373) can0 768#0762290500000000
(1658488759.772020) can0 760#0322290400000000
(1658488759.796372) can0 768#0762290400000000
(1658488759.806034) can0 760#0322290600000000
(1658488759.830372) can0 768#0562290608000000
(1658488759.837142) can0 760#0322290A00000000
(1658488759.862367) can0 768#0462290ACC000000
(1658488759.869320) can0 760#0322D10000000000
(1658488759.894365) can0 768#0462D10081000000
(1658488759.900819) can0 760#0322290000000000
(1658488759.925368) can0 768#0562290000000000
(1658488759.932981) can0 760#0322293000000000
(1658488759.957368) can0 768#0562293000000000
(1658488759.963471) can0 760#0322020000000000
(1658488759.988368) can0 768#0462020002000000
(1658488759.996698) can0 760#0322292700000000
(1658488760.021359) can0 768#0462292700000000
(1658488760.028964) can0 760#0322D10B00000000
(1658488760.053357) can0 768#0462D10B94000000
(1658488760.059551) can0 760#03223A5100000000
(1658488760.084359) can0 768#05623A5100000000
(1658488760.092566) can0 760#0322398800000000
(1658488760.117370) can0 768#0462398802000000
(1658488760.124945) can0 760#0322398A00000000
(1658488760.149358) can0 768#0462398A02000000
(1658488760.157850) can0 760#0322398900000000
(1658488760.182361) can0 768#0462398902000000
(1658488760.185957) can0 760#0322398B00000000
(1658488760.210356) can0 768#0462398B02000000
(1658488760.214263) can0 760#0322320100000000
(1658488760.239356) can0 768#0562320180E40000
(1658488760.243203) can0 760#0322293100000000
(1658488760.268353) can0 768#0462293100000000
(1658488760.273508) can0 760#03223A5000000000
(1658488760.298358) can0 768#05623A5000000000
(1658488760.302145) can0 760#0322290500000000
(1658488760.327395) can0 768#0762290500000000
(1658488760.332737) can0 760#0322290400000000
(1658488760.357393) can0 768#0762290400000000
(1658488760.363665) can0 760#0322290600000000
(1658488760.388357) can0 768#0562290608000000
(1658488760.392676) can0 760#0322290A00000000
(1658488760.417383) can0 768#0462290ACC000000
(1658488760.421533) can0 760#0322D10000000000
(1658488760.446598) can0 768#0462D10081000000
(1658488760.450355) can0 760#0322290000000000
(1658488760.477885) can0 768#0562290000000000
(1658488760.482529) can0 760#0322293000000000
(1658488760.508004) can0 768#0562293000000000
(1658488760.511527) can0 760#0322020000000000
(1658488760.536347) can0 768#0462020002000000
(1658488760.540224) can0 760#0322292700000000
(1658488760.565336) can0 768#0462292700000000
(1658488760.573356) can0 760#0322D10B00000000
(1658488760.598343) can0 768#0462D10B94000000
(1658488760.602099) can0 760#03223A5100000000
(1658488760.627344) can0 768#05623A5100000000
(1658488760.630980) can0 760#0322398800000000
(1658488760.655915) can0 768#0462398802000000
(1658488760.660548) can0 760#0322398A00000000
(1658488760.685369) can0 768#0462398A02000000
(1658488760.689514) can0 760#0322398900000000
(1658488760.714343) can0 768#0462398902000000
(1658488760.718105) can0 760#0322398B00000000
(1658488760.743340) can0 768#0462398B02000000
(1658488760.747068) can0 760#0322320100000000
(1658488760.772875) can0 768#0562320180E40000
(1658488760.776387) can0 760#0322293100000000
(1658488760.801337) can0 768#0462293100000000
(1658488760.806560) can0 760#03223A5000000000
(1658488760.831339) can0 768#05623A5000000000
(1658488760.835447) can0 760#0322290500000000
(1658488760.861366) can0 768#0762290500000000
(1658488760.869715) can0 760#0322290400000000
(1658488760.894342) can0 768#0762290400000000
(1658488760.902641) can0 760#0322290600000000
(1658488760.927339) can0 768#0562290608000000
(1658488760.934312) can0 760#0322290A00000000
(1658488760.959331) can0 768#0462290ACC000000
(1658488760.965166) can0 760#0322D10000000000
(1658488760.990972) can0 768#0462D10081000000
(1658488760.996909) can0 760#0322290000000000
(1658488761.021336) can0 768#0562290000000000
(1658488761.029247) can0 760#0322293000000000
(1658488761.054332) can0 768#0562293000000000
(1658488761.061986) can0 760#0322020000000000
(1658488761.086338) can0 768#0462020002000000
(1658488761.093628) can0 760#0322292700000000
(1658488761.118328) can0 768#0462292700000000
(1658488761.123527) can0 760#0322D10B00000000
(1658488761.149646) can0 768#0462D10B94000000
(1658488761.152392) can0 760#03223A5100000000
(1658488761.177329) can0 768#05623A5100000000
(1658488761.185174) can0 760#0322398800000000
(1658488761.210330) can0 768#0462398802000000
(1658488761.215725) can0 760#0322398A00000000
(1658488761.240323) can0 768#0462398A02000000
(1658488761.249600) can0 760#0322398900000000
(1658488761.274321) can0 768#0462398902000000
(1658488761.279670) can0 760#0322398B00000000
(1658488761.304319) can0 768#0462398B02000000
(1658488778.963726) can0 760#0322290500000000
(1658488778.988829) can0 768#0762290500000000
(1658488778.991727) can0 760#0322290400000000
(1658488779.016951) can0 768#0762290400000000
(1658488779.020390) can0 760#0322290600000000
(1658488779.044825) can0 768#0562290608000000
(1658488779.047511) can0 760#0322290A00000000
(1658488779.100821) can0 768#0462D10081000000
(1658488779.128821) can0 768#0562290000000000
(1658488779.131607) can0 760#0322293000000000
(1658488779.156819) can0 768#0562293000000000
(1658488779.159397) can0 760#0322020000000000
(1658488779.183824) can0 768#0462020002000000
(1658488779.186508) can0 760#0322292700000000
(1658488779.210813) can0 768#0462292700000000
(1658488779.216765) can0 760#0322D10B00000000
(1658488779.241813) can0 768#0462D10B94000000
(1658488779.246365) can0 760#03223A5100000000
(1658488779.271467) can0 768#05623A5100000000
(1658488779.300808) can0 768#0462398802000000
(1658488779.307224) can0 760#0322398A00000000
(1658488779.331812) can0 768#0462398A02000000
(1658488779.338783) can0 760#0322398900000000
(1658488779.363808) can0 768#0462398902000000
(1658488779.396811) can0 768#0462398B02000000
(1658488779.402745) can0 760#0322320100000000
(1658488779.427807) can0 768#0562320180E40000
(1658488779.434502) can0 760#0322293100000000
(1658488779.458811) can0 768#0462293100000000
(1658488779.467375) can0 760#03223A5000000000
(1658488779.491811) can0 768#05623A5000000000
(1658488779.497748) can0 760#0322290500000000
(1658488779.522835) can0 768#0762290500000000
(1658488779.529464) can0 760#0322290400000000
(1658488779.553810) can0 768#0762290400000000
(1658488779.561072) can0 760#0322290600000000
(1658488779.585808) can0 768#0562290608000000
(1658488779.590457) can0 760#0322290A00000000
(1658488779.614800) can0 768#0462290ACC000000
(1658488779.618995) can0 760#0322D10000000000
(1658488779.643806) can0 768#0462D10081000000
(1658488779.650525) can0 760#0322290000000000
(1658488779.683338) can0 760#0322293000000000
(1658488779.707815) can0 768#0562293000000000
(1658488779.714926) can0 760#0322020000000000
(1658488779.739838) can0 768#0462020002000000
(1658488779.746826) can0 760#0322292700000000
(1658488779.771796) can0 768#0462292700000000
(1658488779.781335) can0 760#0322D10B00000000
(1658488779.805795) can0 768#0462D10B94000000
(1658488779.811178) can0 760#03223A5100000000
(1658488779.835795) can0 768#05623A5100000000
(1658488779.842767) can0 760#0322398800000000
(1658488779.867801) can0 768#0462398802000000
(1658488779.901799) can0 768#0462398A02000000
(1658488779.908208) can0 760#0322398900000000
(1658488779.932795) can0 768#0462398902000000
(1658488779.939865) can0 760#0322398B00000000
(1658488779.964793) can0 768#0462398B02000000
(1658488779.974392) can0 760#0322320100000000
(1658488779.998791) can0 768#0562320180E40000
(1658488780.031478) can0 768#0462293100000000
(1658488780.040074) can0 760#03223A5000000000
(1658488780.064792) can0 768#05623A5000000000
(1658488780.098793) can0 768#0762290500000000
(1658488780.107881) can0 760#0322290400000000
(1658488780.132793) can0 768#0762290400000000
(1658488780.141652) can0 760#0322290600000000
(1658488780.166792) can0 768#0562290608000000
(1658488780.174331) can0 760#0322290A00000000
(1658488780.198784) can0 768#0462290ACC000000
(1658488780.230786) can0 768#0462D10081000000
(1658488780.236846) can0 760#0322290000000000
(1658488780.261787) can0 768#0562290000000000
(1658488780.269194) can0 760#0322293000000000
(1658488780.293789) can0 768#0562293000000000
(1658488780.299590) can0 760#0322020000000000
(1658488780.324791) can0 768#0462020002000000
(1658488780.364026) can0 760#0322D10B00000000
(1658488780.388775) can0 768#0462D10B94000000
(1658488780.395822) can0 760#03223A5100000000
(1658488780.420780) can0 768#05623A5100000000
(1658488780.426382) can0 760#0322398800000000
(1658488780.451358) can0 768#0462398802000000
(1658488780.457384) can0 760#0322398A00000000
(1658488780.481783) can0 768#0462398A02000000
(1658488780.488141) can0 760#0322398900000000
(1658488780.512777) can0 768#0462398902000000
(1658488780.518162) can0 760#0322398B00000000
(1658488780.543254) can0 768#0462398B02000000
(1658488780.549105) can0 760#0322320100000000
(1658488780.573801) can0 768#0562320180E40000
(1658488780.579603) can0 760#0322293100000000
(1658488780.613505) can0 760#03223A5000000000
(1658488780.637771) can0 768#05623A5000000000
(1658488780.643300) can0 760#0322290500000000
(1658488780.667773) can0 768#0762290500000000
(1658488780.700773) can0 768#0762290400000000
(1658488780.710138) can0 760#0322290600000000
(1658488780.734780) can0 768#0562290608000000
(1658488780.742145) can0 760#0322290A00000000
(1658488780.766786) can0 768#0462290ACC000000
(1658488780.774715) can0 760#0322D10000000000
(1658488780.800222) can0 768#0462D10081000000
(1658488780.806014) can0 760#0322290000000000
(1658488780.830774) can0 768#0562290000000000
(1658488780.838014) can0 760#0322293000000000
(1658488780.862774) can0 768#0562293000000000
(1658488780.896094) can0 768#0462020002000000
(1658488780.899535) can0 760#0322292700000000
(1658488780.924765) can0 768#0462292700000000
(1658488780.929340) can0 760#0322D10B00000000
(1658488780.953765) can0 768#0462D10B94000000
(1658488780.959650) can0 760#03223A5100000000
(1658488780.984767) can0 768#05623A5100000000
(1658488780.990527) can0 760#0322398800000000
(1658488781.015982) can0 768#0462398802000000
(1658488781.022059) can0 760#0322398A00000000
(1658488781.046765) can0 768#0462398A02000000
(1658488781.052440) can0 760#0322398900000000
(1658488781.082433) can0 760#0322398B00000000
(1658488781.106762) can0 768#0462398B02000000
(1658488781.112398) can0 760#0322320100000000
(1658488781.137479) can0 768#0562320180E40000
(1658488781.143249) can0 760#0322293100000000
(1658488781.168057) can0 768#0462293100000000
(1658488781.176186) can0 760#03223A5000000000
(1658488781.201026) can0 768#05623A5000000000
(1658488781.206906) can0 760#0322290500000000
(1658488781.233412) can0 768#0762290500000000
(1658488781.242515) can0 760#0322290400000000
(1658488781.267762) can0 768#0762290400000000
(1658488781.300757) can0 768#0562290608000000
(1658488781.310676) can0 760#0322290A00000000
(1658488781.335751) can0 768#0462290ACC000000
(1658488781.341322) can0 760#0322D10000000000
(1658488781.365754) can0 768#0462D10081000000
(1658488781.372417) can0 760#0322290000000000
(1658488781.396755) can0 768#0562290000000000
(1658488781.399263) can0 760#0322293000000000
(1658488781.425339) can0 768#0562293000000000
(1658488781.427513) can0 760#0322020000000000
(1658488781.452786) can0 768#0462020002000000
(1658488781.455034) can0 760#0322292700000000
(1658488781.482670) can0 760#0322D10B00000000
(1658488781.510433) can0 760#03223A5100000000
(1658488781.534750) can0 768#05623A5100000000
(1658488781.539776) can0 760#0322398800000000
(1658488781.564752) can0 768#0462398802000000
(1658488781.594755) can0 768#0462398A02000000
(1658488781.599555) can0 760#0322398900000000
(1658488781.624765) can0 768#0462398902000000
(1658488781.629687) can0 760#0322398B00000000
(1658488781.654745) can0 768#0462398B02000000
(1658488781.659329) can0 760#0322320100000000
(1658488781.691038) can0 760#0322293100000000
(1658488781.715742) can0 768#0462293100000000
(1658488781.724050) can0 760#03223A5000000000
(1658488781.748744) can0 768#05623A5000000000
(1658488781.755076) can0 760#0322290500000000
(1658488781.779747) can0 768#0762290500000000
(1658488781.789147) can0 760#0322290400000000
(1658488781.813746) can0 768#0762290400000000
(1658488781.822769) can0 760#0322290600000000
(1658488781.847745) can0 768#0562290608000000
(1658488781.857709) can0 760#0322290A00000000
(1658488781.911738) can0 768#0462D10081000000
(1658488781.916096) can0 760#0322290000000000
(1658488781.940740) can0 768#0562290000000000
(1658488781.945042) can0 760#0322293000000000
(1658488781.976049) can0 760#0322020000000000
(1658488782.002129) can0 768#0462020002000000
(1658488782.008585) can0 760#0322292700000000
(1658488782.033049) can0 768#0462292700000000
(1658488782.042175) can0 760#0322D10B00000000
(1658488782.066734) can0 768#0462D10B94000000
(1658488782.073732) can0 760#03223A5100000000
(1658488782.098730) can0 768#05623A5100000000
(1658488782.106712) can0 760#0322398800000000
(1658488782.131728) can0 768#0462398802000000
(1658488782.138047) can0 760#0322398A00000000
(1658488782.162734) can0 768#0462398A02000000
(1658488782.168450) can0 760#0322398900000000
(1658488782.194982) can0 768#0462398902000000
(1658488782.201199) can0 760#0322398B00000000
(1658488782.225747) can0 768#0462398B02000000
(1658488782.231770) can0 760#0322320100000000
(1658488782.264643) can0 760#0322293100000000
(1658488782.290440) can0 768#0462293100000000
(1658488782.300354) can0 760#03223A5000000000
(1658488782.324728) can0 768#05623A5000000000
(1658488782.331749) can0 760#0322290500000000
(1658488782.367170) can0 760#0322290400000000
(1658488782.391729) can0 768#0762290400000000
(1658488782.403156) can0 760#0322290600000000
(1658488782.427729) can0 768#0562290608000000
(1658488782.435053) can0 760#0322290A00000000
(1658488782.459723) can0 768#0462290ACC000000
(1658488782.466576) can0 760#0322D10000000000
(1658488782.491726) can0 768#0462D10081000000
(1658488782.497189) can0 760#0322290000000000
(1658488782.521723) can0 768#0562290000000000
(1658488782.526082) can0 760#0322293000000000
(1658488782.551310) can0 768#0562293000000000
(1658488782.559513) can0 760#0322020000000000
(1658488782.580722) can0 768#0462020002000000
(1658488782.587941) can0 760#0322292700000000
(1658488782.612718) can0 768#0462292700000000
(1658488782.621954) can0 760#0322D10B00000000
(1658488782.646715) can0 768#0462D10B94000000
(1658488782.652431) can0 760#03223A5100000000
(1658488782.709727) can0 768#0462398802000000
(1658488782.716744) can0 760#0322398A00000000
(1658488782.741718) can0 768#0462398A02000000
(1658488782.747985) can0 760#0322398900000000
(1658488782.772712) can0 768#0462398902000000
(1658488782.778780) can0 760#0322398B00000000
(1658488782.803716) can0 768#0462398B02000000
(1658488782.810898) can0 760#0322320100000000
(1658488782.835709) can0 768#0562320180E40000
(1658488782.841596) can0 760#0322293100000000
(1658488782.867219) can0 768#04622931E0000000
(1658488782.875567) can0 760#03223A5000000000
(1658488782.900710) can0 768#05623A5000000000
(1658488782.907596) can0 760#0322290500000000
(1658488782.932707) can0 768#0762290588880000
(1658488782.943094) can0 760#0322290400000000
(1658488782.967712) can0 768#0762290400000000
(1658488782.978781) can0 760#0322290600000000
(1658488783.003718) can0 768#0562290608000000
(1658488783.012858) can0 760#0322290A00000000
(1658488783.037702) can0 768#0462290ACC000000
(1658488783.043981) can0 760#0322D10000000000
(1658488783.068704) can0 768#0462D10081000000
(1658488783.075362) can0 760#0322290000000000
(1658488783.099735) can0 768#0562290000000000
(1658488783.109227) can0 760#0322293000000000
(1658488783.133704) can0 768#0562293000000000
(1658488783.141152) can0 760#0322020000000000
(1658488783.165695) can0 768#0462020002000000
(1658488783.173569) can0 760#0322292700000000
(1658488783.198674) can0 768#0462292700000000
(1658488783.207895) can0 760#0322D10B00000000
(1658488783.232674) can0 768#0462D10B94000000
(1658488783.239435) can0 760#03223A5100000000
(1658488783.264688) can0 768#05623A51FFFF0000
(1658488783.296671) can0 768#0462398802000000
(1658488783.303884) can0 760#0322398A00000000
(1658488783.328678) can0 768#0462398A02000000
(1658488783.335451) can0 760#0322398900000000
(1658488783.360671) can0 768#0462398902000000
(1658488783.367051) can0 760#0322398B00000000
(1658488783.391685) can0 768#0462398B02000000
(1658488783.397584) can0 760#0322320100000000
(1658488783.422670) can0 768#0562320180E40000
(1658488783.428382) can0 760#0322293100000000
(1658488783.452667) can0 768#0462293100000000
(1658488783.462863) can0 760#03223A5000000000
(1658488783.487669) can0 768#05623A50FFFF0000
(1658488783.493420) can0 760#0322290500000000
(1658488783.518674) can0 768#0762290500000000
(1658488783.528859) can0 760#0322290400000000
(1658488783.554370) can0 768#0762290400000000
(1658488783.565427) can0 760#0322290600000000
(1658488783.590671) can0 768#0562290608000000
(1658488783.598744) can0 760#0322290A00000000
(1658488783.623661) can0 768#0462290ACC000000
(1658488783.630290) can0 760#0322D10000000000
(1658488783.654669) can0 768#0462D10081000000
(1658488783.660368) can0 760#0322290000000000
(1658488783.687228) can0 768#0562290000000000
(1658488783.694059) can0 760#0322293000000000
(1658488783.718666) can0 768#0562293000000000
(1658488783.726080) can0 760#0322020000000000
(1658488783.783657) can0 768#0462292700000000
(1658488783.792124) can0 760#0322D10B00000000
(1658488783.816654) can0 768#0462D10B94000000
(1658488783.822860) can0 760#03223A5100000000
(1658488783.847657) can0 768#05623A5100000000
(1658488783.854312) can0 760#0322398800000000
(1658488783.909682) can0 768#0462398A02000000
(1658488783.915533) can0 760#0322398900000000
(1658488783.940673) can0 768#0462398902000000
(1658488783.946517) can0 760#0322398B00000000
(1658488783.971670) can0 768#0462398B02000000
(1658488783.977493) can0 760#0322320100000000
(1658488784.002838) can0 768#0562320180E40000
(1658488784.008669) can0 760#0322293100000000
(1658488784.033681) can0 768#0462293100000000
(1658488784.041747) can0 760#03223A5000000000
(1658488784.067582) can0 768#05623A5000000000
(1658488784.073385) can0 760#0322290500000000
(1658488784.097682) can0 768#0762290500000000
(1658488784.106843) can0 760#0322290400000000
(1658488784.132483) can0 768#0762290400000000
(1658488784.141482) can0 760#0322290600000000
(1658488784.166678) can0 768#0562290608000000
(1658488784.174036) can0 760#0322290A00000000
(1658488784.198668) can0 768#0462290ACC000000
(1658488784.205757) can0 760#0322D10000000000
(1658488784.230670) can0 768#0462D10081000000
(1658488784.237147) can0 760#0322290000000000
(1658488784.261673) can0 768#0562290000000000
(1658488784.268925) can0 760#0322293000000000
(1658488784.293664) can0 768#0562293000000000
(1658488784.299550) can0 760#0322020000000000
(1658488784.324671) can0 768#0462020002000000
(1658488784.330501) can0 760#0322292700000000
(1658488784.364188) can0 760#0322D10B00000000
(1658488784.388661) can0 768#0462D10B94000000
(1658488784.394531) can0 760#03223A5100000000
(1658488784.420308) can0 768#05623A5100000000
(1658488784.425859) can0 760#0322398800000000
(1658488784.451569) can0 768#0462398802000000
(1658488784.457608) can0 760#0322398A00000000
(1658488784.490116) can0 760#0322398900000000
(1658488784.515338) can0 768#0462398902000000
(1658488784.521791) can0 760#0322398B00000000
(1658488784.547844) can0 768#0462398B02000000
(1658488784.554016) can0 760#0322320100000000
(1658488784.578661) can0 768#0562320180E40000
(1658488784.584184) can0 760#0322293100000000
(1658488784.608662) can0 768#0462293100000000
(1658488784.616426) can0 760#03223A5000000000
(1658488784.641662) can0 768#05623A50FFFF0000
(1658488784.648576) can0 760#0322290500000000
(1658488784.673669) can0 768#0762290500000000
(1658488784.682448) can0 760#0322290400000000
(1658488784.707668) can0 768#0762290400000000
(1658488784.716666) can0 760#0322290600000000
(1658488784.741663) can0 768#0562290608000000
(1658488784.750386) can0 760#0322290A00000000
(1658488784.775562) can0 768#0462290ACC000000
(1658488784.781575) can0 760#0322D10000000000
(1658488784.806655) can0 768#0462D10081000000
(1658488784.812544) can0 760#0322290000000000
(1658488784.837657) can0 768#0562290000000000
(1658488784.844422) can0 760#0322293000000000
(1658488784.871471) can0 768#0562293000000000
(1658488784.877488) can0 760#0322020000000000
(1658488784.902659) can0 768#0462020002000000
(1658488784.908893) can0 760#0322292700000000
(1658488784.933653) can0 768#0462292700000000
(1658488784.943614) can0 760#0322D10B00000000
(1658488784.968649) can0 768#0462D10B94000000
(1658488784.976019) can0 760#03223A5100000000
(1658488785.000648) can0 768#05623A5100000000
(1658488785.032649) can0 768#0462398802000000
(1658488785.038737) can0 760#0322398A00000000
(1658488785.063652) can0 768#0462398A02000000
(1658488785.072897) can0 760#0322398900000000
(1658488785.097646) can0 768#0462398902000000
(1658488785.104325) can0 760#0322398B00000000
(1658488785.128646) can0 768#0462398B02000000
(1658488785.134470) can0 760#0322320100000000
(1658488785.159645) can0 768#0562320180E40000
(1658488785.190642) can0 768#0462293100000000
(1658488785.198528) can0 760#03223A5000000000
(1658488785.223647) can0 768#05623A5000000000
(1658488785.229400) can0 760#0322290500000000
(1658488785.254652) can0 768#0762290500000000
(1658488785.263048) can0 760#0322290400000000
(1658488785.287647) can0 768#0762290400000000
(1658488785.295995) can0 760#0322290600000000
(1658488785.320644) can0 768#0562290608000000
(1658488785.327691) can0 760#0322290A00000000
(1658488785.352640) can0 768#0462290ACC000000
(1658488785.358198) can0 760#0322D10000000000
(1658488785.383166) can0 768#0462D10081000000
(1658488785.389441) can0 760#0322290000000000
(1658488785.414645) can0 768#0562290000000000
(1658488785.422197) can0 760#0322293000000000
(1658488785.446641) can0 768#0562293000000000
(1658488785.452689) can0 760#0322020000000000
(1658488785.477642) can0 768#0462020002000000
(1658488785.509633) can0 768#0462292700000000
(1658488785.517508) can0 760#0322D10B00000000
(1658488785.542628) can0 768#0462D10B94000000
(1658488785.551252) can0 760#03223A5100000000
(1658488785.575631) can0 768#05623A5100000000
(1658488785.581275) can0 760#0322398800000000
(1658488785.607753) can0 768#0462398802000000
(1658488785.613575) can0 760#0322398A00000000
(1658488785.638762) can0 768#0462398A02000000
(1658488785.644190) can0 760#0322398900000000
(1658488785.668620) can0 768#0462398902000000
(1658488785.674251) can0 760#0322398B00000000
(1658488785.698626) can0 768#0462398B02000000
(1658488785.704795) can0 760#0322320100000000
(1658488785.730488) can0 768#0562320180E40000
(1658488785.737539) can0 760#0322293100000000
(1658488785.762632) can0 768#0462293100000000
(1658488785.771523) can0 760#03223A5000000000
(1658488785.796891) can0 768#05623A5000000000
(1658488785.803053) can0 760#0322290500000000
(1658488785.827632) can0 768#0762290500000000
(1658488785.837045) can0 760#0322290400000000
(1658488785.861628) can0 768#0762290400000000
(1658488785.872721) can0 760#0322290600000000
(1658488785.897629) can0 768#0562290608000000
(1658488785.905448) can0 760#0322290A00000000
(1658488785.930619) can0 768#0462290ACC000000
(1658488785.937042) can0 760#0322D10000000000
(1658488785.961626) can0 768#0462D10081000000
(1658488785.965493) can0 760#0322290000000000
(1658488785.990624) can0 768#0562290000000000
(1658488785.996671) can0 760#0322293000000000
(1658488786.021621) can0 768#0562293000000000
(1658488786.025484) can0 760#0322020000000000
(1658488786.050627) can0 768#0462020002000000
(1658488786.056454) can0 760#0322292700000000
(1658488786.126141) can0 760#03223A5100000000
(1658488786.150615) can0 768#05623A5100000000
(1658488786.157176) can0 760#0322398800000000
(1658488786.181612) can0 768#0462398802000000
(1658488786.189427) can0 760#0322398A00000000
(1658488786.214616) can0 768#0462398A02000000
(1658488786.221142) can0 760#0322398900000000
(1658488786.245632) can0 768#0462398902000000
(1658488786.251544) can0 760#0322398B00000000
(1658488786.277386) can0 768#0462398B02000000
(1658488786.284228) can0 760#0322320100000000
(1658488786.308919) can0 768#0562320180E40000
(1658488786.315958) can0 760#0322293100000000
(1658488786.340968) can0 768#0462293100000000
(1658488786.349957) can0 760#03223A5000000000
(1658488786.375276) can0 768#05623A5000000000
(1658488786.380791) can0 760#0322290500000000
(1658488786.405883) can0 768#0762290500000000
(1658488786.415465) can0 760#0322290400000000
(1658488786.440612) can0 768#0762290400000000
(1658488786.450257) can0 760#0322290600000000
(1658488786.475274) can0 768#0562290608000000
(1658488786.508607) can0 768#0462290ACC000000
(1658488786.514273) can0 760#0322D10000000000
(1658488786.538803) can0 768#0462D10081000000
(1658488786.544695) can0 760#0322290000000000
(1658488786.578169) can0 760#0322293000000000
(1658488786.602610) can0 768#0562293000000000
(1658488786.608800) can0 760#0322020000000000
(1658488786.633615) can0 768#0462020002000000
(1658488786.640231) can0 760#0322292700000000
(1658488786.664603) can0 768#0462292700000000
(1658488786.673289) can0 760#0322D10B00000000
(1658488786.697602) can0 768#0462D10B94000000
(1658488786.704176) can0 760#03223A5100000000
(1658488786.728599) can0 768#05623A5100000000
(1658488786.736183) can0 760#0322398800000000
(1658488786.760597) can0 768#0462398802000000
(1658488786.766691) can0 760#0322398A00000000
(1658488786.791598) can0 768#0462398A02000000
(1658488786.797372) can0 760#0322398900000000
(1658488786.822598) can0 768#0462398902000000
(1658488786.826370) can0 760#0322398B00000000
(1658488786.851597) can0 768#0462398B02000000
(1658488786.859523) can0 760#0322320100000000
(1658488786.885916) can0 768#0562320180E40000
(1658488786.913604) can0 768#0462293100000000
(1658488786.944601) can0 768#05623A5000000000
(1658488786.950210) can0 760#0322290500000000
(1658488786.975258) can0 768#0762290500000000
(1658488786.983952) can0 760#0322290400000000
(1658488787.008598) can0 768#0762290400000000
(1658488787.017594) can0 760#0322290600000000
(1658488787.042598) can0 768#0562290608000000
(1658488787.075583) can0 768#0462290ACC000000
(1658488787.106716) can0 768#0462D10081000000
(1658488787.112876) can0 760#0322290000000000
(1658488787.137591) can0 768#0562290000000000
(1658488787.146470) can0 760#0322293000000000
(1658488787.172146) can0 768#0562293000000000
(1658488787.177751) can0 760#0322020000000000
(1658488787.202594) can0 768#0462020002000000
(1658488787.207887) can0 760#0322292700000000
(1658488787.232586) can0 768#0462292700000000
(1658488787.238611) can0 760#0322D10B00000000
(1658488787.263584) can0 768#0462D10B94000000
(1658488787.271302) can0 760#03223A5100000000
(1658488787.295582) can0 768#05623A5100000000
(1658488787.301913) can0 760#0322398800000000
(1658488787.326581) can0 768#0462398802000000
(1658488787.332412) can0 760#0322398A00000000
(1658488787.367187) can0 760#0322398900000000
(1658488787.391580) can0 768#0462398902000000
(1658488787.398551) can0 760#0322398B00000000
(1658488787.423580) can0 768#0462398B02000000
(1658488787.430695) can0 760#0322320100000000
(1658488787.456443) can0 768#0562320180E40000
(1658488787.463023) can0 760#0322293100000000
(1658488787.496361) can0 760#03223A5000000000
(1658488787.521578) can0 768#05623A50FFFF0000
(1658488787.529011) can0 760#0322290500000000
(1658488787.553584) can0 768#0762290500000000
(1658488787.562202) can0 760#0322290400000000
(1658488787.586579) can0 768#0762290400000000
(1658488787.594724) can0 760#0322290600000000
(1658488787.628324) can0 760#0322290A00000000
(1658488787.654247) can0 768#0462290ACC000000
(1658488787.660469) can0 760#0322D10000000000
(1658488787.692776) can0 760#0322290000000000
(1658488787.718781) can0 768#0562290000000000
(1658488787.725882) can0 760#0322293000000000
(1658488787.750573) can0 768#0562293000000000
(1658488787.756335) can0 760#0322020000000000
(1658488787.781577) can0 768#0462020002000000
(1658488787.788824) can0 760#0322292700000000
(1658488787.813568) can0 768#0462292700000000
(1658488787.823237) can0 760#0322D10B00000000
(1658488787.847564) can0 768#0462D10B94000000
(1658488787.880566) can0 768#05623A51FFFF0000
(1658488787.886496) can0 760#0322398800000000
(1658488787.911562) can0 768#0462398802000000
(1658488787.917565) can0 760#0322398A00000000
(1658488787.942708) can0 768#0462398A02000000
(1658488787.948336) can0 760#0322398900000000
(1658488787.973562) can0 768#0462398902000000
(1658488787.979029) can0 760#0322398B00000000
(1658488788.003561) can0 768#0462398B02000000
(1658488788.009125) can0 760#0322320100000000
(1658488788.033562) can0 768#0562320180E40000
(1658488788.040177) can0 760#0322293100000000
(1658488788.064563) can0 768#0462293100000000
(1658488788.072502) can0 760#03223A5000000000
(1658488788.097587) can0 768#05623A5000000000
(1658488788.106821) can0 760#0322290500000000
(1658488788.131562) can0 768#0762290500000000
(1658488788.140752) can0 760#0322290400000000
(1658488788.165557) can0 768#0762290400000000
(1658488788.171924) can0 760#0322290600000000
(1658488788.196556) can0 768#0562290608000000
(1658488917.392677) can0 760#0322290500000000
(1658488917.417785) can0 768#0762290500000000
(1658488917.420649) can0 760#0322290400000000
(1658488917.446181) can0 768#0762290400000000
(1658488917.449320) can0 760#0322290600000000
(1658488917.473795) can0 768#0562290608000000
(1658488917.476409) can0 760#0322290A00000000
(1658488917.500774) can0 768#0462290ACC000000
(1658488917.503321) can0 760#0322D10000000000
(1658488917.527777) can0 768#0462D10081000000
(1658488917.530404) can0 760#0322290000000000
(1658488917.554816) can0 768#0562290000000000
(1658488917.557999) can0 760#0322293000000000
(1658488917.582774) can0 768#0562293000000000
(1658488917.585315) can0 760#0322020000000000
(1658488917.611409) can0 768#0462020002000000
(1658488917.613779) can0 760#0322292700000000
(1658488917.638767) can0 768#0462292700000000
(1658488917.673259) can0 760#03223A5100000000
(1658488917.703725) can0 760#0322398800000000
(1658488917.728767) can0 768#0462398802000000
(1658488917.734691) can0 760#0322398A00000000
(1658488917.791765) can0 768#0462398902000000
(1658488917.798055) can0 760#0322398B00000000
(1658488917.822767) can0 768#0462398B02000000
(1658488917.828420) can0 760#0322320100000000
(1658488917.852770) can0 768#0562320180E40000
(1658488917.859921) can0 760#0322293100000000
(1658488917.884760) can0 768#0462293100000000
(1658488917.892852) can0 760#03223A5000000000
(1658488917.917763) can0 768#05623A50FFFF0000
(1658488917.924606) can0 760#0322290500000000
(1658488917.949772) can0 768#0762290500000000
(1658488917.959738) can0 760#0322290400000000
(1658488917.984765) can0 768#0762290400000000
(1658488917.994501) can0 760#0322290600000000
(1658488918.019763) can0 768#0562290608000000
(1658488918.029048) can0 760#0322290A00000000
(1658488918.054476) can0 768#0462290ACC000000
(1658488918.061530) can0 760#0322D10000000000
(1658488918.088478) can0 768#0462D10081000000
(1658488918.095328) can0 760#0322290000000000
(1658488918.119760) can0 768#0562290000000000
(1658488918.128251) can0 760#0322293000000000
(1658488918.152761) can0 768#0562293000000000
(1658488918.157418) can0 760#0322020000000000
(1658488918.181760) can0 768#0462020002000000
(1658488918.186820) can0 760#0322292700000000
(1658488918.211752) can0 768#0462292700000000
(1658488918.217996) can0 760#0322D10B00000000
(1658488918.242744) can0 768#0462D10B94000000
(1658488918.249227) can0 760#03223A5100000000
(1658488918.273757) can0 768#05623A5100000000
(1658488918.279505) can0 760#0322398800000000
(1658488918.304753) can0 768#0462398802000000
(1658488918.311017) can0 760#0322398A00000000
(1658488918.343196) can0 760#0322398900000000
(1658488918.367745) can0 768#0462398902000000
(1658488918.374991) can0 760#0322398B00000000
(1658488918.399747) can0 768#0462398B02000000
(1658488918.410750) can0 760#0322320100000000
(1658488918.443814) can0 760#0322293100000000
(1658488918.468745) can0 768#0462293100000000
(1658488918.478074) can0 760#03223A5000000000
(1658488918.503213) can0 768#05623A5000000000
(1658488918.534973) can0 768#0762290500000000
(1658488918.543787) can0 760#0322290400000000
(1658488918.568748) can0 768#0762290400000000
(1658488918.578300) can0 760#0322290600000000
(1658488918.602749) can0 768#0562290608000000
(1658488918.610815) can0 760#0322290A00000000
(1658488918.636694) can0 768#0462290ACC000000
(1658488918.642837) can0 760#0322D10000000000
(1658488918.667868) can0 768#0462D10081000000
(1658488918.674879) can0 760#0322290000000000
(1658488918.708052) can0 760#0322293000000000
(1658488918.732873) can0 768#0562293000000000
(1658488918.739937) can0 760#0322020000000000
(1658488918.764745) can0 768#0462020002000000
(1658488918.770748) can0 760#0322292700000000
(1658488918.795735) can0 768#0462292700000000
(1658488918.803816) can0 760#0322D10B00000000
(1658488918.829277) can0 768#0462D10B94000000
(1658488918.835225) can0 760#03223A5100000000
(1658488918.859733) can0 768#05623A5100000000
(1658488918.865602) can0 760#0322398800000000
(1658488918.890732) can0 768#0462398802000000
(1658488918.896231) can0 760#0322398A00000000
(1658488918.920733) can0 768#0462398A02000000
(1658488918.926840) can0 760#0322398900000000
(1658488918.951730) can0 768#0462398902000000
(1658488918.959163) can0 760#0322398B00000000
(1658488918.983939) can0 768#0462398B02000000
(1658488918.990755) can0 760#0322320100000000
(1658488919.016944) can0 768#0562320180E40000
(1658488919.023434) can0 760#0322293100000000
(1658488919.047729) can0 768#0462293100000000
(1658488919.055715) can0 760#03223A5000000000
(1658488919.080732) can0 768#05623A50FFFF0000
(1658488919.086725) can0 760#0322290500000000
(1658488919.121626) can0 760#0322290400000000
(1658488919.146730) can0 768#0762290400000000
(1658488919.155918) can0 760#0322290600000000
(1658488919.180729) can0 768#0562290608000000
(1658488919.187855) can0 760#0322290A00000000
(1658488919.212830) can0 768#0462290ACC000000
(1658488919.218608) can0 760#0322D10000000000
(1658488919.243722) can0 768#0462D10081000000
(1658488919.249207) can0 760#0322290000000000
(1658488919.273725) can0 768#0562290000000000
(1658488919.281263) can0 760#0322293000000000
(1658488919.305727) can0 768#0562293000000000
(1658488919.312248) can0 760#0322020000000000
(1658488919.336727) can0 768#0462020002000000
(1658488919.342574) can0 760#0322292700000000
(1658488919.368155) can0 768#0462292700000000
(1658488919.376277) can0 760#0322D10B00000000
(1658488919.400720) can0 768#0462D10B94000000
(1658488919.409243) can0 760#03223A5100000000
(1658488919.433717) can0 768#05623A5100000000
(1658488919.439582) can0 760#0322398800000000
(1658488919.464714) can0 768#0462398802000000
(1658488919.470059) can0 760#0322398A00000000
(1658488919.494757) can0 768#0462398A02000000
(1658488919.526716) can0 768#0462398902000000
(1658488919.530905) can0 760#0322398B00000000
(1658488919.555713) can0 768#0462398B02000000
(1658488919.561179) can0 760#0322320100000000
(1658488919.592355) can0 760#0322293100000000
(1658488919.616840) can0 768#0462293100000000
(1658488919.626158) can0 760#03223A5000000000
(1658488919.650713) can0 768#05623A50FFFF0000
(1658488919.657270) can0 760#0322290500000000
(1658488919.681715) can0 768#0762290500000000
(1658488919.692087) can0 760#0322290400000000
(1658488919.716899) can0 768#0762290400000000
(1658488919.723379) can0 760#0322290600000000
(1658488919.747713) can0 768#0562290608000000
(1658488919.752441) can0 760#0322290A00000000
(1658488919.776704) can0 768#0462290ACC000000
(1658488919.780869) can0 760#0322D10000000000
(1658488919.805710) can0 768#0462D10081000000
(1658488919.809100) can0 760#0322290000000000
(1658488919.833709) can0 768#0562290000000000
(1658488919.838294) can0 760#0322293000000000
(1658488919.862748) can0 768#0562293000000000
(1658488919.867047) can0 760#0322020000000000
(1658488919.891710) can0 768#0462020002000000
(1658488919.895177) can0 760#0322292700000000
(1658488919.919700) can0 768#0462292700000000
(1658488919.925729) can0 760#0322D10B00000000
(1658488919.950699) can0 768#0462D10B94000000
(1658488919.954090) can0 760#03223A5100000000
(1658488919.978700) can0 768#05623A51FFFF0000
(1658488919.982210) can0 760#0322398800000000
(1658488920.014847) can0 760#0322398A00000000
(1658488920.040915) can0 768#0462398A02000000
(1658488920.046255) can0 760#0322398900000000
(1658488920.070696) can0 768#0462398902000000
(1658488920.076458) can0 760#0322398B00000000
(1658488920.132736) can0 768#0562320180E40000
(1658488920.138962) can0 760#0322293100000000
(1658488920.163693) can0 768#0462293100000000
(1658488920.172845) can0 760#03223A5000000000
(1658488920.197698) can0 768#05623A5000000000
(1658488920.205014) can0 760#0322290500000000
(1658488920.229699) can0 768#0762290500000000
(1658488920.238242) can0 760#0322290400000000
(1658488920.263195) can0 768#0762290400000000
(1658488920.272285) can0 760#0322290600000000
(1658488920.296696) can0 768#0562290608000000
(1658488920.304755) can0 760#0322290A00000000
(1658488920.329688) can0 768#0462290ACC000000
(1658488920.336798) can0 760#0322D10000000000
(1658488920.361691) can0 768#0462D10081000000
(1658488920.392690) can0 768#0562290000000000
(1658488920.399768) can0 760#0322293000000000
(1658488920.425098) can0 768#0562293000000000
(1658488920.430612) can0 760#0322020000000000
(1658488920.455697) can0 768#0462020002000000
(1658488920.463066) can0 760#0322292700000000
(1658488920.487684) can0 768#0462292700000000
(1658488920.492794) can0 760#0322D10B00000000
(1658488920.517681) can0 768#0462D10B94000000
(1658488920.522004) can0 760#03223A5100000000
(1658488920.546685) can0 768#05623A51FFFF0000
(1658488920.550297) can0 760#0322398800000000
(1658488920.574684) can0 768#0462398802000000
(1658488920.578066) can0 760#0322398A00000000
(1658488920.632841) can0 768#0462398902000000
(1658488920.637181) can0 760#0322398B00000000
(1658488920.661681) can0 768#0462398B02000000
(1658488920.669854) can0 760#0322320100000000
(1658488920.694681) can0 768#0562320180E40000
(1658488920.698168) can0 760#0322293100000000
(1658488920.722682) can0 768#0462293100000000
(1658488920.727683) can0 760#03223A5000000000
(1658488920.752685) can0 768#05623A5000000000
(1658488920.757056) can0 760#0322290500000000
(1658488920.781682) can0 768#0762290500000000
(1658488920.788094) can0 760#0322290400000000
(1658488920.812685) can0 768#0762290400000000
(1658488920.818550) can0 760#0322290600000000
(1658488920.843681) can0 768#0562290608000000
(1658488920.848692) can0 760#0322290A00000000
(1658488920.873672) can0 768#0462290ACC000000
(1658488920.877415) can0 760#0322D10000000000
(1658488920.930677) can0 768#0562290000000000
(1658488920.960675) can0 768#0562293000000000
(1658488920.964025) can0 760#0322020000000000
(1658488920.988677) can0 768#0462020002000000
(1658488920.992054) can0 760#0322292700000000
(1658488921.017651) can0 768#0462292700000000
(1658488921.022689) can0 760#0322D10B00000000
(1658488921.047666) can0 768#0462D10B94000000
(1658488921.051122) can0 760#03223A5100000000
(1658488921.075669) can0 768#05623A5100000000
(1658488921.079905) can0 760#0322398800000000
(1658488921.104946) can0 768#0462398802000000
(1658488921.132672) can0 768#0462398A02000000
(1658488921.135289) can0 760#0322398900000000
(1658488921.159693) can0 768#0462398902000000
(1658488921.162664) can0 760#0322398B00000000
(1658488921.187667) can0 768#0462398B02000000
(1658488921.190546) can0 760#0322320100000000
(1658488921.222394) can0 760#0322293100000000
(1658488921.246660) can0 768#0462293100000000
(1658488921.254065) can0 760#03223A5000000000
(1658488921.278665) can0 768#05623A5000000000
(1658488921.282074) can0 760#0322290500000000
(1658488921.307023) can0 768#0762290500000000
(1658488921.311900) can0 760#0322290400000000
(1658488921.336667) can0 768#0762290400000000
(1658488921.370633) can0 760#0322290A00000000
(1658488921.395657) can0 768#0462290ACC000000
(1658488921.401000) can0 760#0322D10000000000
(1658488921.425660) can0 768#0462D10081000000
(1658488921.431504) can0 760#0322290000000000
(1658488921.456686) can0 768#0562290000000000
(1658488921.463737) can0 760#0322293000000000
(1658488921.488659) can0 768#0562293000000000
(1658488921.494166) can0 760#0322020000000000
(1658488921.518664) can0 768#0462020002000000
(1658488921.524823) can0 760#0322292700000000
(1658488921.549654) can0 768#0462292700000000
(1658488921.557960) can0 760#0322D10B00000000
(1658488921.582652) can0 768#0462D10B94000000
(1658488921.588655) can0 760#03223A5100000000
(1658488921.613654) can0 768#05623A5100000000
(1658488921.619499) can0 760#0322398800000000
(1658488921.644652) can0 768#0462398802000000
(1658488921.650282) can0 760#0322398A00000000
(1658488921.674651) can0 768#0462398A02000000
(1658488921.680321) can0 760#0322398900000000
(1658488921.706034) can0 768#0462398902000000
(1658488921.711551) can0 760#0322398B00000000
(1658488921.737154) can0 768#0462398B02000000
(1658488921.742837) can0 760#0322320100000000
(1658488921.767651) can0 768#0562320180E40000
(1658488921.773929) can0 760#0322293100000000
(1658488921.798650) can0 768#0462293100000000
(1658488921.801986) can0 760#03223A5000000000
(1658488921.826648) can0 768#05623A5000000000
(1658488921.828994) can0 760#0322290500000000
(1658488921.853653) can0 768#0762290500000000
(1658488921.857805) can0 760#0322290400000000
(1658488921.882648) can0 768#0762290400000000
(1658488921.910650) can0 768#0562290608000000
(1658488921.913383) can0 760#0322290A00000000
(1658488921.937643) can0 768#0462290ACC000000
(1658488921.941830) can0 760#0322D10000000000
(1658488921.966643) can0 768#0462D10081000000
(1658488921.972778) can0 760#0322290000000000
(1658488921.997643) can0 768#0562290000000000
(1658488922.004670) can0 760#0322293000000000
(1658488922.029648) can0 768#0562293000000000
(1658488922.035355) can0 760#0322020000000000
(1658488922.059646) can0 768#0462020002000000
(1658488922.065519) can0 760#0322292700000000
(1658488922.090638) can0 768#0462292700000000
(1658488922.098312) can0 760#0322D10B00000000
(1658488922.122637) can0 768#0462D10B94000000
(1658488922.128176) can0 760#03223A5100000000
(1658488922.152638) can0 768#05623A5100000000
(1658488922.159293) can0 760#0322398800000000
(1658488922.183640) can0 768#0462398802000000
(1658488922.189759) can0 760#0322398A00000000
(1658488922.214635) can0 768#0462398A02000000
(1658488922.220281) can0 760#0322398900000000
(1658488922.244631) can0 768#0462398902000000
(1658488922.250897) can0 760#0322398B00000000
(1658488922.275629) can0 768#0462398B02000000
(1658488922.281138) can0 760#0322320100000000
(1658488922.312656) can0 760#0322293100000000
(1658488922.337622) can0 768#0462293100000000
(1658488922.345160) can0 760#03223A5000000000
(1658488922.369625) can0 768#05623A5000000000
(1658488922.375819) can0 760#0322290500000000
(1658488922.400634) can0 768#0762290500000000
(1658488922.409293) can0 760#0322290400000000
(1658488922.433633) can0 768#0762290400000000
(1658488922.443270) can0 760#0322290600000000
(1658488922.467634) can0 768#0562290608000000
(1658488922.475373) can0 760#0322290A00000000
(1658488922.499623) can0 768#0462290ACC000000
(1658488922.532631) can0 768#0462D10081000000
(1658488922.539426) can0 760#0322290000000000
(1658488922.564633) can0 768#0562290000000000
(1658488922.572698) can0 760#0322293000000000
(1658488922.597627) can0 768#0562293000000000
(1658488922.629633) can0 768#0462020002000000
(1658488922.635275) can0 760#0322292700000000
(1658488922.659622) can0 768#0462292700000000
(1658488922.669533) can0 760#0322D10B00000000
(1658488922.694616) can0 768#0462D10B94000000
(1658488922.700083) can0 760#03223A5100000000
(1658488922.724638) can0 768#05623A5100000000
(1658488922.729927) can0 760#0322398800000000
(1658488922.754623) can0 768#0462398802000000
(1658488922.784616) can0 768#0462398A02000000
(1658488922.790804) can0 760#0322398900000000
(1658488922.821391) can0 760#0322398B00000000
(1658488922.846614) can0 768#0462398B02000000
(1658488922.853534) can0 760#0322320100000000
(1658488922.878613) can0 768#0562320180E40000
(1658488922.881950) can0 760#0322293100000000
(1658488922.913379) can0 760#03223A5000000000
(1658488922.939277) can0 768#05623A50FFFF0000
(1658488922.967611) can0 768#0762290588880000
(1658488922.976128) can0 760#0322290400000000
(1658488923.000620) can0 768#0762290400000000
(1658488923.045538) can0 760#0322290A00000000
(1658488923.070605) can0 768#0462290ACC000000
